# MHz S MA R 50
!   freq        S11       
40.000000  0.49345  138.40
40.408163  0.49485  132.11
40.816327  0.49686  125.89
41.224490  0.49863  119.68
41.632653  0.50084  113.50
42.040816  0.50363  107.41
42.448980  0.50600  101.41
42.857143  0.50821   95.41
43.265306  0.51098   89.49
43.673469  0.51371   83.64
44.081633  0.51657   77.87
44.489796  0.51961   72.09
44.897959  0.52234   66.35
45.306122  0.52474   60.72
45.714286  0.52714   55.08
46.122449  0.52948   49.51
46.530612  0.53162   43.98
46.938776  0.53321   38.53
47.346939  0.53522   33.08
47.755102  0.53663   27.64
48.163265  0.53798   22.28
48.571429  0.53869   16.88
48.979592  0.53944   11.53
49.387755  0.54039    6.17
49.795918  0.54028    0.81
50.204082  0.54011   -4.48
50.612245  0.53978   -9.88
51.020408  0.53921  -15.30
51.428571  0.53865  -20.62
51.836735  0.53714  -26.03
52.244898  0.53588  -31.46
52.653061  0.53391  -36.92
53.061224  0.53189  -42.42
53.469388  0.52919  -47.95
53.877551  0.52747  -53.57
54.285714  0.52476  -59.22
54.693878  0.52154  -64.86
55.102041  0.51857  -70.56
55.510204  0.51577  -76.34
55.918367  0.51223  -82.10
56.326531  0.50932  -87.98
56.734694  0.50575  -93.91
57.142857  0.50246  -99.93
57.551020  0.49913 -105.96
57.959184  0.49581 -111.99
58.367347  0.49255 -118.27
58.775510  0.48967 -124.42
59.183673  0.48696 -130.76
59.591837  0.48416 -137.11
60.000000  0.48183 -143.44
