# MHz S MA R 50
!   freq        S11       
40.000000  0.54867  -66.15
40.408163  0.54598  -70.40
40.816327  0.54353  -74.60
41.224490  0.54123  -78.94
41.632653  0.53886  -83.32
42.040816  0.53673  -87.66
42.448980  0.53368  -91.99
42.857143  0.53082  -96.38
43.265306  0.52870 -100.79
43.673469  0.52576 -105.30
44.081633  0.52309 -109.77
44.489796  0.52010 -114.28
44.897959  0.51798 -118.90
45.306122  0.51556 -123.46
45.714286  0.51305 -128.13
46.122449  0.51126 -132.80
46.530612  0.50887 -137.43
46.938776  0.50723 -142.15
47.346939  0.50463 -146.95
47.755102  0.50326 -151.70
48.163265  0.50163 -156.52
48.571429  0.49988 -161.31
48.979592  0.49878 -166.15
49.387755  0.49795 -170.89
49.795918  0.49685 -175.76
50.204082  0.49625  179.42
50.612245  0.49577  174.49
51.020408  0.49505  169.72
51.428571  0.49552  164.90
51.836735  0.49489  160.08
52.244898  0.49582  155.26
52.653061  0.49618  150.46
53.061224  0.49679  145.68
53.469388  0.49805  140.96
53.877551  0.49918  136.27
54.285714  0.50048  131.51
54.693878  0.50109  126.92
55.102041  0.50292  122.22
55.510204  0.50496  117.61
55.918367  0.50661  113.05
56.326531  0.50852  108.40
56.734694  0.51015  103.95
57.142857  0.51279   99.42
57.551020  0.51410   94.99
57.959184  0.51663   90.52
58.367347  0.51826   86.21
58.775510  0.52156   81.66
59.183673  0.52344   77.41
59.591837  0.52629   73.08
60.000000  0.52747   68.82
