# MHz S MA R 50
!   freq        S11       
40.000000  0.51501 -105.36
40.408163  0.51122 -110.34
40.816327  0.50757 -115.39
41.224490  0.50430 -120.46
41.632653  0.50137 -125.63
42.040816  0.49872 -130.78
42.448980  0.49592 -136.00
42.857143  0.49307 -141.20
43.265306  0.49088 -146.43
43.673469  0.48909 -151.78
44.081633  0.48694 -157.18
44.489796  0.48506 -162.56
44.897959  0.48439 -167.88
45.306122  0.48341 -173.21
45.714286  0.48317 -178.59
46.122449  0.48272  176.08
46.530612  0.48254  170.69
46.938776  0.48298  165.42
47.346939  0.48363  160.05
47.755102  0.48454  154.74
48.163265  0.48601  149.49
48.571429  0.48734  144.21
48.979592  0.48903  139.00
49.387755  0.49142  133.89
49.795918  0.49376  128.73
50.204082  0.49622  123.70
50.612245  0.49874  118.64
51.020408  0.50125  113.59
51.428571  0.50477  108.73
51.836735  0.50735  103.72
52.244898  0.51103   98.90
52.653061  0.51338   94.08
53.061224  0.51686   89.36
53.469388  0.52019   84.63
53.877551  0.52351   79.96
54.285714  0.52689   75.19
54.693878  0.52889   70.66
55.102041  0.53246   66.04
55.510204  0.53535   61.52
55.918367  0.53808   57.11
56.326531  0.54122   52.57
56.734694  0.54279   48.11
57.142857  0.54557   43.78
57.551020  0.54746   39.40
57.959184  0.54988   35.13
58.367347  0.55103   30.81
58.775510  0.55311   26.43
59.183673  0.55485   22.14
59.591837  0.55632   17.91
60.000000  0.55638   13.64
